! mmWave Power Amplifier S-Parameters
! Measured at Vds=28V, Ids=100mA
! Frequency Range: 27-29 GHz
! Date: December 2024
! Reference: 50 Ohms
# GHz S MA R 50
! Freq(GHz)  |S11|   Ang(S11)  |S21|   Ang(S21)  |S12|   Ang(S12)  |S22|   Ang(S22)
27.000  0.152  -165.3  10.234   45.2  0.012  -89.5  0.189  -178.2
27.100  0.148  -167.1  10.456   43.8  0.012  -90.1  0.185  -179.5
27.200  0.145  -168.8  10.678   42.3  0.011  -90.8  0.182  179.3
27.300  0.142  -170.5  10.891   40.9  0.011  -91.4  0.179  178.1
27.400  0.139  -172.2  11.095   39.4  0.011  -92.0  0.176  176.9
27.500  0.136  -173.9  11.289   38.0  0.010  -92.6  0.173  175.7
27.600  0.134  -175.5  11.473   36.5  0.010  -93.2  0.171  174.5
27.700  0.131  -177.1  11.647   35.1  0.010  -93.8  0.168  173.3
27.800  0.129  -178.7  11.810   33.6  0.010  -94.4  0.166  172.1
27.900  0.127  179.7  11.962   32.2  0.009  -95.0  0.164  170.9
28.000  0.125  178.2  12.103   30.7  0.009  -95.6  0.162  169.7
28.100  0.123  176.7  12.232   29.3  0.009  -96.2  0.160  168.5
28.200  0.121  175.2  12.350   27.8  0.009  -96.8  0.158  167.3
28.300  0.120  173.7  12.456   26.4  0.009  -97.4  0.157  166.1
28.400  0.118  172.2  12.550   24.9  0.008  -98.0  0.155  164.9
28.500  0.117  170.7  12.632   23.5  0.008  -98.6  0.154  163.7
28.600  0.116  169.3  12.702   22.0  0.008  -99.2  0.152  162.5
28.700  0.115  167.8  12.760   20.6  0.008  -99.8  0.151  161.3
28.800  0.114  166.4  12.806   19.1  0.008  -100.4  0.150  160.1
28.900  0.113  165.0  12.840   17.7  0.008  -101.0  0.149  158.9
29.000  0.112  163.6  12.862   16.2  0.007  -101.6  0.148  157.7